### APB Protocol Theory

The Advanced Peripheral Bus (APB) is part of the AMBA (Advanced Microcontroller Bus Architecture) protocol suite developed by ARM. It is designed for low-bandwidth, low-power peripherals that do not require high performance. APB operates as a secondary bus in an AMBA-based system, connecting slower peripheral devices like UARTs, GPIOs, timers, or SPI to the rest of the system.

#### Key Features of APB
1. **Low Complexity**: APB is a simple protocol with minimal control signals, making it suitable for peripherals with low power and performance requirements.
2. **Single Clock**: APB operates with a single clock signal, which simplifies its implementation compared to multi-clock domain buses like AXI or AHB.
3. **Address and Data Transfer**: Data transfer occurs in two phases: the setup phase and the access phase. The address and control signals are valid during the setup phase, while the data is read or written during the access phase.
4. **Low Power Consumption**: APB's simplicity and single clock operation reduce power usage, making it ideal for battery-powered systems.
5. **Synchronous Operation**: All signals in APB are synchronous with the clock signal.

#### Signals in APB
1. **PSEL (Peripheral Select)**: Indicates that a specific peripheral is selected for communication.
2. **PENABLE**: Indicates the start of the access phase. It goes high after the setup phase.
3. **PWRITE**: Determines the direction of the transfer. When `PWRITE = 1`, it's a write operation; when `PWRITE = 0`, it's a read operation.
4. **PADDR**: Specifies the address of the peripheral register being accessed.
5. **PWDATA**: Data to be written to the peripheral during a write operation.
6. **PRDATA**: Data read from the peripheral during a read operation.
7. **PREADY**: Indicates that the peripheral is ready to complete the transfer.

#### Operation of APB Protocol
1. **Setup Phase**:
   - The master asserts `PSEL` to select the peripheral.
   - It drives the address on `PADDR` and the data on `PWDATA` (for write operations).
   - `PWRITE` is set to indicate the direction of the transfer.

2. **Access Phase**:
   - The master asserts `PENABLE` to start the access phase.
   - The peripheral asserts `PREADY` when it is ready to complete the transfer.
   - If `PWRITE` is high, the data on `PWDATA` is written to the peripheral.
   - If `PWRITE` is low, the peripheral drives the data onto `PRDATA`.

3. **Idle State**:
   - When no transfers are active, `PSEL` and `PENABLE` are deasserted, and the bus remains idle.

#### Advantages of APB
- Simplified design for low-bandwidth peripherals.
- Reduced power consumption due to minimal control signals.
- Easy to integrate into systems with other AMBA protocols.

#### Limitations of APB
- Lower performance compared to AHB or AXI.
- Lacks support for burst transfers or pipelining.

APB is an efficient protocol for peripherals that prioritize simplicity and low power over high throughput, making it a popular choice in embedded systems.
